
T3527C 000:310 SEGGER J-Link V4.96d Log File (0001ms, 0261ms total)
T3527C 000:310 DLL Compiled: Jan 29 2015 11:45:37 (0001ms, 0261ms total)
T3527C 000:310 Logging started @ 2016-10-24 14:07 (0001ms, 0261ms total)
T3527C 000:311 JLINK_SetWarnOutHandler(...) (0000ms, 0261ms total)
T3527C 000:311 JLINK_OpenEx(...)
Firmware: J-Link ARM V8 compiled Nov 28 2014 13:44:46
Hardware: V8.00
S/N: 304230680
Feature(s): RDI,FlashDL,FlashBP,JFlash,GDBFULL  returns O.K. (0261ms, 0522ms total)
T3527C 000:572 JLINK_SetErrorOutHandler(...) (0000ms, 0522ms total)
T3527C 000:572 JLINK_ExecCommand("ProjectFile = "E:\项目\IOV\实验32 MPU6050六轴传感器实验\USER\JLinkSettings.ini"", ...)  returns 0x00 (0000ms, 0522ms total)
T3527C 000:574 JLINK_ExecCommand("Device = STM32F103ZE", ...)Device "STM32F103ZE" selected.  returns 0x00 (0003ms, 0525ms total)
T3527C 000:577 JLINK_ExecCommand("DisableConnectionTimeout", ...)  returns 0x01 (0000ms, 0525ms total)
T3527C 000:577 JLINK_GetHardwareVersion()  returns 0x13880 (0000ms, 0525ms total)
T3527C 000:577 JLINK_GetDLLVersion()  returns 49604 (0000ms, 0525ms total)
T3527C 000:577 JLINK_GetFirmwareString(...) (0000ms, 0525ms total)
T3527C 000:598 JLINK_GetDLLVersion()  returns 49604 (0000ms, 0525ms total)
T3527C 000:598 JLINK_GetCompileDateTime() (0000ms, 0525ms total)
T3527C 000:601 JLINK_GetFirmwareString(...) (0000ms, 0525ms total)
T3527C 000:605 JLINK_GetHardwareVersion()  returns 0x13880 (0000ms, 0525ms total)
T3527C 000:619 JLINK_TIF_Select(JLINKARM_TIF_JTAG)  returns 0x00 (0001ms, 0526ms total)
T3527C 000:620 JLINK_SetSpeed(20000) (0000ms, 0526ms total)
T3527C 000:620 JLINK_GetIdData(...) >0x2F8 JTAG>Could not measure total IR len. TDO is constant high. >0x30 JTAG>STM32Fxxxx: Cannot attach to CPU. Trying connect under reset. >0x2F8 JTAG>TotalIRLen = 9, IRPrint = 0x0011 >0x30 JTAG> >0x210 JTAG> >0x40 JTAG> >0x40 JTAG> >0x40 JTAG> >0x30 JTAG> >0x40 JTAG> >0x40 JTAG> >0x40 JTAG> >0x40 JTAG> >0x40 JTAG> >0x40 JTAG> >0x40 JTAG> >0x40 JTAG> >0x40 JTAG> >0x40 JTAG> >0x40 JTAG> >0x40 JTAG> >0x40 JTAG> >0x40 JTAG> >0x40 JTAG> >0x40 JTAG> >0x40 JTAG> >0x40 JTAG>
 >0x2F8 JTAG>TotalIRLen = 9, IRPrint = 0x0011 >0x30 JTAG> >0x210 JTAG> >0x70 JTAG> >0x40 JTAG> >0x40 JTAG> >0x40 JTAG> >0x50 JTAG> >0x80 JTAG> >0x40 JTAG> >0x30 JTAG> >0x40 JTAG> >0x40 JTAG> >0x30 JTAG> >0x40 JTAG> >0x50 JTAG>Found Cortex-M3 r1p1, Little endian. -- CPU_WriteMem(4 bytes @ 0xE0002000) -- CPU_ReadMem(4 bytes @ 0xE000EDF0) -- CPU_ReadMem(4 bytes @ 0xE0002000)FPUnit: 6 code (BP) slots and 2 literal slots -- CPU_ReadMem(4 bytes @ 0xE000EDFC) -- CPU_ReadMem(4 bytes @ 0xE0001000)
 -- CPU_WriteMem(4 bytes @ 0xE0001000) -- CPU_ReadMem(4 bytes @ 0xE000ED88) -- CPU_WriteMem(4 bytes @ 0xE000ED88) -- CPU_ReadMem(4 bytes @ 0xE000ED88) -- CPU_WriteMem(4 bytes @ 0xE000ED88) -- CPU_ReadMem(4 bytes @ 0xE00FF010)TPIU fitted. -- CPU_ReadMem(4 bytes @ 0xE00FF014)ETM fitted. -- CPU_ReadMem(4 bytes @ 0xE00FF018) ScanLen=9 NumDevices=2 aId[0]=0x3BA00477 aIrRead[0]=0 aScanLen[0]=0 aScanRead[0]=0 (0149ms, 0675ms total)
T3527C 000:769 JLINK_JTAG_GetDeviceID(DeviceIndex = 0)  returns 0x3BA00477 (0000ms, 0675ms total)
T3527C 000:769 JLINK_JTAG_GetDeviceInfo(DeviceIndex = 0)  returns 0x00 (0000ms, 0675ms total)
T3527C 000:769 JLINK_JTAG_GetDeviceID(DeviceIndex = 1)  returns 0x6414041 (0000ms, 0675ms total)
T3527C 000:769 JLINK_JTAG_GetDeviceInfo(DeviceIndex = 1)  returns 0x00 (0000ms, 0675ms total)
T3527C 000:769 JLINK_GetDLLVersion()  returns 49604 (0000ms, 0675ms total)
T3527C 000:769 JLINK_CORE_GetFound()  returns 0x30000FF (0000ms, 0675ms total)
T3527C 000:769 JLINK_GetDebugInfo(0x100) -- Value=0xE00FF003  returns 0x00 (0000ms, 0675ms total)
T3527C 000:773 JLINK_ReadMem (0xE00FF000, 0x0020 Bytes, ...) -- CPU is running -- CPU_ReadMem(32 bytes @ 0xE00FF000) - Data: 03 F0 F0 FF 03 20 F0 FF 03 30 F0 FF 03 10 F0 FF ...  returns 0x00 (0000ms, 0675ms total)
T3527C 000:773 JLINK_ReadMem (0xE000EFF0, 0x0010 Bytes, ...) -- CPU is running -- CPU_ReadMem(16 bytes @ 0xE000EFF0) - Data: 0D 00 00 00 E0 00 00 00 05 00 00 00 B1 00 00 00  returns 0x00 (0001ms, 0676ms total)
T3527C 000:774 JLINK_ReadMem (0xE000EFD0, 0x0020 Bytes, ...) -- CPU is running -- CPU_ReadMem(32 bytes @ 0xE000EFD0) - Data: 04 00 00 00 00 00 00 00 00 00 00 00 00 00 00 00 ...  returns 0x00 (0000ms, 0676ms total)
T3527C 000:774 JLINK_ReadMem (0xE0001FF0, 0x0010 Bytes, ...) -- CPU is running -- CPU_ReadMem(16 bytes @ 0xE0001FF0) - Data: 0D 00 00 00 E0 00 00 00 05 00 00 00 B1 00 00 00  returns 0x00 (0000ms, 0676ms total)
T3527C 000:774 JLINK_ReadMem (0xE0001FD0, 0x0020 Bytes, ...) -- CPU is running -- CPU_ReadMem(32 bytes @ 0xE0001FD0) - Data: 04 00 00 00 00 00 00 00 00 00 00 00 00 00 00 00 ...  returns 0x00 (0001ms, 0677ms total)
T3527C 000:775 JLINK_ReadMem (0xE0002FF0, 0x0010 Bytes, ...) -- CPU is running -- CPU_ReadMem(16 bytes @ 0xE0002FF0) - Data: 0D 00 00 00 E0 00 00 00 05 00 00 00 B1 00 00 00  returns 0x00 (0000ms, 0677ms total)
T3527C 000:775 JLINK_ReadMem (0xE0002FD0, 0x0020 Bytes, ...) -- CPU is running -- CPU_ReadMem(32 bytes @ 0xE0002FD0) - Data: 04 00 00 00 00 00 00 00 00 00 00 00 00 00 00 00 ...  returns 0x00 (0001ms, 0678ms total)
T3527C 000:776 JLINK_ReadMem (0xE0000FF0, 0x0010 Bytes, ...) -- CPU is running -- CPU_ReadMem(16 bytes @ 0xE0000FF0) - Data: 0D 00 00 00 E0 00 00 00 05 00 00 00 B1 00 00 00  returns 0x00 (0000ms, 0678ms total)
T3527C 000:776 JLINK_ReadMem (0xE0000FD0, 0x0020 Bytes, ...) -- CPU is running -- CPU_ReadMem(32 bytes @ 0xE0000FD0) - Data: 04 00 00 00 00 00 00 00 00 00 00 00 00 00 00 00 ...  returns 0x00 (0001ms, 0679ms total)
T3527C 000:777 JLINK_ReadMem (0xE0040FF0, 0x0010 Bytes, ...) -- CPU is running -- CPU_ReadMem(16 bytes @ 0xE0040FF0) - Data: 0D 00 00 00 90 00 00 00 05 00 00 00 B1 00 00 00  returns 0x00 (0000ms, 0679ms total)
T3527C 000:777 JLINK_ReadMem (0xE0040FD0, 0x0020 Bytes, ...) -- CPU is running -- CPU_ReadMem(32 bytes @ 0xE0040FD0) - Data: 04 00 00 00 00 00 00 00 00 00 00 00 00 00 00 00 ...  returns 0x00 (0000ms, 0679ms total)
T3527C 000:777 JLINK_ReadMem (0xE0041FF0, 0x0010 Bytes, ...) -- CPU is running -- CPU_ReadMem(16 bytes @ 0xE0041FF0) - Data: 0D 00 00 00 90 00 00 00 05 00 00 00 B1 00 00 00  returns 0x00 (0001ms, 0680ms total)
T3527C 000:778 JLINK_ReadMem (0xE0041FD0, 0x0020 Bytes, ...) -- CPU is running -- CPU_ReadMem(32 bytes @ 0xE0041FD0) - Data: 04 00 00 00 00 00 00 00 00 00 00 00 00 00 00 00 ...  returns 0x00 (0000ms, 0680ms total)
T3527C 000:778 JLINK_ReadMemU32(0xE000ED00, 0x0001 Items, ...) -- CPU is running -- CPU_ReadMem(4 bytes @ 0xE000ED00) - Data: 31 C2 1F 41  returns 0x01 (0001ms, 0681ms total)
T3527C 000:779 JLINK_SetResetType(JLINKARM_RESET_TYPE_NORMAL)  returns JLINKARM_RESET_TYPE_NORMAL (0000ms, 0681ms total)
T3527C 000:779 JLINK_Reset() -- CPU is running -- CPU_WriteMem(4 bytes @ 0xE000EDF0) -- CPU is running -- CPU_WriteMem(4 bytes @ 0xE000EDFC) -- CPU is running -- CPU_WriteMem(4 bytes @ 0xE000ED0C) -- CPU is running -- CPU_ReadMem(4 bytes @ 0xE000EDF0) -- CPU is running -- CPU_ReadMem(4 bytes @ 0xE000EDF0) -- CPU is running -- CPU_WriteMem(4 bytes @ 0xE000EDF0) -- CPU is running -- CPU_WriteMem(4 bytes @ 0xE000EDFC) -- CPU is running -- CPU_ReadMem(4 bytes @ 0xE000EDF0) >0x80 JTAG> >0x40 JTAG> >0x30 JTAG>
 >0x40 JTAG> >0x50 JTAG> >0x40 JTAG> -- CPU_WriteMem(4 bytes @ 0xE000EDFC) -- CPU_WriteMem(4 bytes @ 0xE0001028) -- CPU_WriteMem(4 bytes @ 0xE0001038) -- CPU_WriteMem(4 bytes @ 0xE0001048) -- CPU_WriteMem(4 bytes @ 0xE0001058) -- CPU_WriteMem(4 bytes @ 0xE0002000) -- CPU_ReadMem(4 bytes @ 0xE000EDFC) -- CPU_ReadMem(4 bytes @ 0xE0001000) (0021ms, 0702ms total)
T3527C 000:800 JLINK_Halt()  returns 0x00 (0000ms, 0702ms total)
T3527C 000:800 JLINK_IsHalted()  returns TRUE (0000ms, 0702ms total)
T3527C 000:800 JLINK_ReadMemU32(0xE000EDF0, 0x0001 Items, ...) -- CPU_ReadMem(4 bytes @ 0xE000EDF0) - Data: 03 00 03 00  returns 0x01 (0001ms, 0703ms total)
T3527C 000:801 JLINK_WriteU32(0xE000EDF0, 0xA05F0003) -- CPU_WriteMem(4 bytes @ 0xE000EDF0)  returns 0x00 (0000ms, 0703ms total)
T3527C 000:801 JLINK_WriteU32(0xE000EDFC, 0x01000000) -- CPU_WriteMem(4 bytes @ 0xE000EDFC)  returns 0x00 (0000ms, 0703ms total)
T3527C 000:815 JLINK_GetHWStatus(...)  returns 0x00 (0000ms, 0703ms total)
T3527C 000:823 JLINK_GetNumBPUnits(Type = 0xFFFFFF00)  returns 0x06 (0000ms, 0703ms total)
T3527C 000:823 JLINK_GetNumBPUnits(Type = 0xF0)  returns 0x2000 (0000ms, 0703ms total)
T3527C 000:823 JLINK_GetNumWPUnits()  returns 0x04 (0000ms, 0703ms total)
T3527C 000:882 JLINK_GetSpeed()  returns 0x2EE0 (0000ms, 0703ms total)
T3527C 000:891 JLINK_ReadMemU32(0xE000E004, 0x0001 Items, ...) -- CPU_ReadMem(4 bytes @ 0xE000E004) - Data: 01 00 00 00  returns 0x01 (0000ms, 0703ms total)
T3527C 000:891 JLINK_ReadMemU32(0xE000E004, 0x0001 Items, ...) -- CPU_ReadMem(4 bytes @ 0xE000E004) - Data: 01 00 00 00  returns 0x01 (0001ms, 0704ms total)
T3527C 000:892 JLINK_WriteMem(0xE0001000, 0x001C Bytes, ...) - Data: 01 00 00 00 00 00 00 00 00 00 00 00 00 00 00 00 ... -- CPU_WriteMem(28 bytes @ 0xE0001000)  returns 0x1C (0001ms, 0705ms total)
T3527C 000:893 JLINK_ReadMem (0xE0001000, 0x001C Bytes, ...) -- CPU_ReadMem(28 bytes @ 0xE0001000) - Data: 01 00 00 40 00 00 00 00 00 00 00 00 00 00 00 00 ...  returns 0x00 (0000ms, 0705ms total)
T3527C 000:893 JLINK_Halt()  returns 0x00 (0000ms, 0705ms total)
T3527C 000:893 JLINK_IsHalted()  returns TRUE (0000ms, 0705ms total)
T3527C 000:895 JLINK_WriteMem(0x20000000, 0x0164 Bytes, ...) - Data: 00 BE 0A E0 0D 78 2D 06 68 40 08 24 40 00 00 D3 ... -- CPU_WriteMem(356 bytes @ 0x20000000)  returns 0x164 (0003ms, 0708ms total)
T3527C 000:898 JLINK_WriteReg(R0, 0x08000000)  returns 0x00 (0000ms, 0708ms total)
T3527C 000:898 JLINK_WriteReg(R1, 0x00B71B00)  returns 0x00 (0000ms, 0708ms total)
T3527C 000:898 JLINK_WriteReg(R2, 0x00000001)  returns 0x00 (0000ms, 0708ms total)
T3527C 000:898 JLINK_WriteReg(R3, 0x00000000)  returns 0x00 (0000ms, 0708ms total)
T3527C 000:898 JLINK_WriteReg(R4, 0x00000000)  returns 0x00 (0000ms, 0708ms total)
T3527C 000:898 JLINK_WriteReg(R5, 0x00000000)  returns 0x00 (0000ms, 0708ms total)
T3527C 000:898 JLINK_WriteReg(R6, 0x00000000)  returns 0x00 (0000ms, 0708ms total)
T3527C 000:898 JLINK_WriteReg(R7, 0x00000000)  returns 0x00 (0000ms, 0708ms total)
T3527C 000:898 JLINK_WriteReg(R8, 0x00000000)  returns 0x00 (0000ms, 0708ms total)
T3527C 000:898 JLINK_WriteReg(R9, 0x20000160)  returns 0x00 (0000ms, 0708ms total)
T3527C 000:898 JLINK_WriteReg(R10, 0x00000000)  returns 0x00 (0000ms, 0708ms total)
T3527C 000:898 JLINK_WriteReg(R11, 0x00000000)  returns 0x00 (0000ms, 0708ms total)
T3527C 000:898 JLINK_WriteReg(R12, 0x00000000)  returns 0x00 (0000ms, 0708ms total)
T3527C 000:898 JLINK_WriteReg(R13 (SP), 0x20001000)  returns 0x00 (0000ms, 0708ms total)
T3527C 000:898 JLINK_WriteReg(R14, 0x20000001)  returns 0x00 (0000ms, 0708ms total)
T3527C 000:898 JLINK_WriteReg(R15 (PC), 0x20000038)  returns 0x00 (0000ms, 0708ms total)
T3527C 000:898 JLINK_WriteReg(XPSR, 0x01000000)  returns 0x00 (0000ms, 0708ms total)
T3527C 000:898 JLINK_WriteReg(MSP, 0x20001000)  returns 0x00 (0000ms, 0708ms total)
T3527C 000:898 JLINK_WriteReg(PSP, 0x20001000)  returns 0x00 (0000ms, 0708ms total)
T3527C 000:898 JLINK_WriteReg(CFBP, 0x00000000)  returns 0x00 (0000ms, 0708ms total)
T3527C 000:898 JLINK_SetBPEx(Addr = 0x20000000, Type = 0xFFFFFFF2) -- CPU_ReadMem(2 bytes @ 0x20000000)  returns 0x00000001 (0000ms, 0708ms total)
T3527C 000:898 JLINK_Go() -- CPU_WriteMem(2 bytes @ 0x20000000) -- CPU_WriteMem(4 bytes @ 0xE0002008) -- CPU_WriteMem(4 bytes @ 0xE000200C) -- CPU_WriteMem(4 bytes @ 0xE0002010) -- CPU_WriteMem(4 bytes @ 0xE0002014) -- CPU_WriteMem(4 bytes @ 0xE0002018) -- CPU_WriteMem(4 bytes @ 0xE000201C) -- CPU_WriteMem(4 bytes @ 0xE0001004) (0004ms, 0712ms total)
T3527C 000:902 JLINK_IsHalted() -- CPU_ReadMem(2 bytes @ 0x20000000)  returns TRUE (0002ms, 0714ms total)
T3527C 000:904 JLINK_ReadReg(R15 (PC))  returns 0x20000000 (0000ms, 0712ms total)
T3527C 000:904 JLINK_ClrBPEx(BPHandle = 0x00000001)  returns 0x00 (0000ms, 0712ms total)
T3527C 000:904 JLINK_ReadReg(R0)  returns 0x00000000 (0000ms, 0712ms total)
T3527C 000:905 JLINK_WriteReg(R0, 0x08000000)  returns 0x00 (0000ms, 0712ms total)
T3527C 000:905 JLINK_WriteReg(R1, 0x00B71B00)  returns 0x00 (0000ms, 0712ms total)
T3527C 000:905 JLINK_WriteReg(R2, 0x00000001)  returns 0x00 (0000ms, 0712ms total)
T3527C 000:905 JLINK_WriteReg(R3, 0x00000000)  returns 0x00 (0000ms, 0712ms total)
T3527C 000:905 JLINK_WriteReg(R4, 0x00000000)  returns 0x00 (0000ms, 0712ms total)
T3527C 000:905 JLINK_WriteReg(R5, 0x00000000)  returns 0x00 (0000ms, 0712ms total)
T3527C 000:905 JLINK_WriteReg(R6, 0x00000000)  returns 0x00 (0000ms, 0712ms total)
T3527C 000:905 JLINK_WriteReg(R7, 0x00000000)  returns 0x00 (0000ms, 0712ms total)
T3527C 000:905 JLINK_WriteReg(R8, 0x00000000)  returns 0x00 (0000ms, 0712ms total)
T3527C 000:905 JLINK_WriteReg(R9, 0x20000160)  returns 0x00 (0000ms, 0712ms total)
T3527C 000:905 JLINK_WriteReg(R10, 0x00000000)  returns 0x00 (0000ms, 0712ms total)
T3527C 000:905 JLINK_WriteReg(R11, 0x00000000)  returns 0x00 (0000ms, 0712ms total)
T3527C 000:905 JLINK_WriteReg(R12, 0x00000000)  returns 0x00 (0000ms, 0712ms total)
T3527C 000:905 JLINK_WriteReg(R13 (SP), 0x20001000)  returns 0x00 (0000ms, 0712ms total)
T3527C 000:905 JLINK_WriteReg(R14, 0x20000001)  returns 0x00 (0000ms, 0712ms total)
T3527C 000:905 JLINK_WriteReg(R15 (PC), 0x2000007C)  returns 0x00 (0000ms, 0712ms total)
T3527C 000:905 JLINK_WriteReg(XPSR, 0x01000000)  returns 0x00 (0000ms, 0712ms total)
T3527C 000:905 JLINK_WriteReg(MSP, 0x20001000)  returns 0x00 (0000ms, 0712ms total)
T3527C 000:905 JLINK_WriteReg(PSP, 0x20001000)  returns 0x00 (0000ms, 0712ms total)
T3527C 000:905 JLINK_WriteReg(CFBP, 0x00000000)  returns 0x00 (0000ms, 0712ms total)
T3527C 000:905 JLINK_SetBPEx(Addr = 0x20000000, Type = 0xFFFFFFF2)  returns 0x00000002 (0000ms, 0712ms total)
T3527C 000:905 JLINK_Go() (0001ms, 0713ms total)
T3527C 000:906 JLINK_IsHalted()  returns FALSE (0000ms, 0713ms total)
T3527C 001:030 JLINK_IsHalted() -- CPU_ReadMem(2 bytes @ 0x20000000)  returns TRUE (0002ms, 0715ms total)
T3527C 001:032 JLINK_ReadReg(R15 (PC))  returns 0x20000000 (0000ms, 0713ms total)
T3527C 001:032 JLINK_ClrBPEx(BPHandle = 0x00000002)  returns 0x00 (0000ms, 0713ms total)
T3527C 001:032 JLINK_ReadReg(R0)  returns 0x00000000 (0000ms, 0713ms total)
T3527C 001:083 JLINK_WriteReg(R0, 0x00000001)  returns 0x00 (0000ms, 0713ms total)
T3527C 001:083 JLINK_WriteReg(R1, 0x00B71B00)  returns 0x00 (0000ms, 0713ms total)
T3527C 001:083 JLINK_WriteReg(R2, 0x00000001)  returns 0x00 (0000ms, 0713ms total)
T3527C 001:083 JLINK_WriteReg(R3, 0x00000000)  returns 0x00 (0000ms, 0713ms total)
T3527C 001:083 JLINK_WriteReg(R4, 0x00000000)  returns 0x00 (0000ms, 0713ms total)
T3527C 001:083 JLINK_WriteReg(R5, 0x00000000)  returns 0x00 (0000ms, 0713ms total)
T3527C 001:083 JLINK_WriteReg(R6, 0x00000000)  returns 0x00 (0000ms, 0713ms total)
T3527C 001:083 JLINK_WriteReg(R7, 0x00000000)  returns 0x00 (0000ms, 0713ms total)
T3527C 001:083 JLINK_WriteReg(R8, 0x00000000)  returns 0x00 (0000ms, 0713ms total)
T3527C 001:083 JLINK_WriteReg(R9, 0x20000160)  returns 0x00 (0000ms, 0713ms total)
T3527C 001:083 JLINK_WriteReg(R10, 0x00000000)  returns 0x00 (0000ms, 0713ms total)
T3527C 001:083 JLINK_WriteReg(R11, 0x00000000)  returns 0x00 (0000ms, 0713ms total)
T3527C 001:083 JLINK_WriteReg(R12, 0x00000000)  returns 0x00 (0000ms, 0713ms total)
T3527C 001:083 JLINK_WriteReg(R13 (SP), 0x20001000)  returns 0x00 (0000ms, 0713ms total)
T3527C 001:083 JLINK_WriteReg(R14, 0x20000001)  returns 0x00 (0000ms, 0713ms total)
T3527C 001:083 JLINK_WriteReg(R15 (PC), 0x2000006A)  returns 0x00 (0000ms, 0713ms total)
T3527C 001:083 JLINK_WriteReg(XPSR, 0x01000000)  returns 0x00 (0000ms, 0713ms total)
T3527C 001:083 JLINK_WriteReg(MSP, 0x20001000)  returns 0x00 (0000ms, 0713ms total)
T3527C 001:083 JLINK_WriteReg(PSP, 0x20001000)  returns 0x00 (0000ms, 0713ms total)
T3527C 001:083 JLINK_WriteReg(CFBP, 0x00000000)  returns 0x00 (0000ms, 0713ms total)
T3527C 001:083 JLINK_SetBPEx(Addr = 0x20000000, Type = 0xFFFFFFF2)  returns 0x00000003 (0000ms, 0713ms total)
T3527C 001:083 JLINK_Go() (0001ms, 0714ms total)
T3527C 001:084 JLINK_IsHalted() -- CPU_ReadMem(2 bytes @ 0x20000000)  returns TRUE (0003ms, 0717ms total)
T3527C 001:087 JLINK_ReadReg(R15 (PC))  returns 0x20000000 (0000ms, 0714ms total)
T3527C 001:087 JLINK_ClrBPEx(BPHandle = 0x00000003)  returns 0x00 (0000ms, 0714ms total)
T3527C 001:087 JLINK_ReadReg(R0)  returns 0x00000000 (0000ms, 0714ms total)
T3527C 001:094 JLINK_WriteMem(0x20000000, 0x0164 Bytes, ...) - Data: 00 BE 0A E0 0D 78 2D 06 68 40 08 24 40 00 00 D3 ... -- CPU_WriteMem(356 bytes @ 0x20000000)  returns 0x164 (0002ms, 0716ms total)
T3527C 001:096 JLINK_WriteReg(R0, 0x08000000)  returns 0x00 (0000ms, 0716ms total)
T3527C 001:096 JLINK_WriteReg(R1, 0x00B71B00)  returns 0x00 (0000ms, 0716ms total)
T3527C 001:096 JLINK_WriteReg(R2, 0x00000002)  returns 0x00 (0000ms, 0716ms total)
T3527C 001:096 JLINK_WriteReg(R3, 0x00000000)  returns 0x00 (0000ms, 0716ms total)
T3527C 001:096 JLINK_WriteReg(R4, 0x00000000)  returns 0x00 (0000ms, 0716ms total)
T3527C 001:096 JLINK_WriteReg(R5, 0x00000000)  returns 0x00 (0000ms, 0716ms total)
T3527C 001:096 JLINK_WriteReg(R6, 0x00000000)  returns 0x00 (0000ms, 0716ms total)
T3527C 001:096 JLINK_WriteReg(R7, 0x00000000)  returns 0x00 (0000ms, 0716ms total)
T3527C 001:096 JLINK_WriteReg(R8, 0x00000000)  returns 0x00 (0000ms, 0716ms total)
T3527C 001:096 JLINK_WriteReg(R9, 0x20000160)  returns 0x00 (0000ms, 0716ms total)
T3527C 001:096 JLINK_WriteReg(R10, 0x00000000)  returns 0x00 (0000ms, 0716ms total)
T3527C 001:096 JLINK_WriteReg(R11, 0x00000000)  returns 0x00 (0000ms, 0716ms total)
T3527C 001:096 JLINK_WriteReg(R12, 0x00000000)  returns 0x00 (0000ms, 0716ms total)
T3527C 001:096 JLINK_WriteReg(R13 (SP), 0x20001000)  returns 0x00 (0000ms, 0716ms total)
T3527C 001:096 JLINK_WriteReg(R14, 0x20000001)  returns 0x00 (0000ms, 0716ms total)
T3527C 001:096 JLINK_WriteReg(R15 (PC), 0x20000038)  returns 0x00 (0000ms, 0716ms total)
T3527C 001:096 JLINK_WriteReg(XPSR, 0x01000000)  returns 0x00 (0000ms, 0716ms total)
T3527C 001:096 JLINK_WriteReg(MSP, 0x20001000)  returns 0x00 (0000ms, 0716ms total)
T3527C 001:096 JLINK_WriteReg(PSP, 0x20001000)  returns 0x00 (0000ms, 0716ms total)
T3527C 001:096 JLINK_WriteReg(CFBP, 0x00000000)  returns 0x00 (0000ms, 0716ms total)
T3527C 001:096 JLINK_SetBPEx(Addr = 0x20000000, Type = 0xFFFFFFF2) -- CPU_ReadMem(2 bytes @ 0x20000000)  returns 0x00000004 (0000ms, 0716ms total)
T3527C 001:096 JLINK_Go() -- CPU_WriteMem(2 bytes @ 0x20000000) (0001ms, 0717ms total)
T3527C 001:097 JLINK_IsHalted() -- CPU_ReadMem(2 bytes @ 0x20000000)  returns TRUE (0003ms, 0720ms total)
T3527C 001:100 JLINK_ReadReg(R15 (PC))  returns 0x20000000 (0000ms, 0717ms total)
T3527C 001:100 JLINK_ClrBPEx(BPHandle = 0x00000004)  returns 0x00 (0000ms, 0717ms total)
T3527C 001:100 JLINK_ReadReg(R0)  returns 0x00000000 (0000ms, 0717ms total)
T3527C 001:100 JLINK_WriteMem(0x20000164, 0x0400 Bytes, ...) - Data: 18 07 00 20 2D 02 00 08 31 02 00 08 33 02 00 08 ... -- CPU_WriteMem(1024 bytes @ 0x20000164)  returns 0x400 (0006ms, 0723ms total)
T3527C 001:106 JLINK_WriteReg(R0, 0x08000000)  returns 0x00 (0000ms, 0723ms total)
T3527C 001:106 JLINK_WriteReg(R1, 0x00000400)  returns 0x00 (0000ms, 0723ms total)
T3527C 001:106 JLINK_WriteReg(R2, 0x20000164)  returns 0x00 (0000ms, 0723ms total)
T3527C 001:106 JLINK_WriteReg(R3, 0x00000000)  returns 0x00 (0000ms, 0723ms total)
T3527C 001:106 JLINK_WriteReg(R4, 0x00000000)  returns 0x00 (0000ms, 0723ms total)
T3527C 001:106 JLINK_WriteReg(R5, 0x00000000)  returns 0x00 (0000ms, 0723ms total)
T3527C 001:106 JLINK_WriteReg(R6, 0x00000000)  returns 0x00 (0000ms, 0723ms total)
T3527C 001:106 JLINK_WriteReg(R7, 0x00000000)  returns 0x00 (0000ms, 0723ms total)
T3527C 001:106 JLINK_WriteReg(R8, 0x00000000)  returns 0x00 (0000ms, 0723ms total)
T3527C 001:106 JLINK_WriteReg(R9, 0x20000160)  returns 0x00 (0000ms, 0723ms total)
T3527C 001:106 JLINK_WriteReg(R10, 0x00000000)  returns 0x00 (0000ms, 0723ms total)
T3527C 001:106 JLINK_WriteReg(R11, 0x00000000)  returns 0x00 (0000ms, 0723ms total)
T3527C 001:106 JLINK_WriteReg(R12, 0x00000000)  returns 0x00 (0000ms, 0723ms total)
T3527C 001:106 JLINK_WriteReg(R13 (SP), 0x20001000)  returns 0x00 (0000ms, 0723ms total)
T3527C 001:106 JLINK_WriteReg(R14, 0x20000001)  returns 0x00 (0000ms, 0723ms total)
T3527C 001:106 JLINK_WriteReg(R15 (PC), 0x200000F4)  returns 0x00 (0000ms, 0723ms total)
T3527C 001:106 JLINK_WriteReg(XPSR, 0x01000000)  returns 0x00 (0000ms, 0723ms total)
T3527C 001:106 JLINK_WriteReg(MSP, 0x20001000)  returns 0x00 (0000ms, 0723ms total)
T3527C 001:106 JLINK_WriteReg(PSP, 0x20001000)  returns 0x00 (0000ms, 0723ms total)
T3527C 001:106 JLINK_WriteReg(CFBP, 0x00000000)  returns 0x00 (0000ms, 0723ms total)
T3527C 001:106 JLINK_SetBPEx(Addr = 0x20000000, Type = 0xFFFFFFF2)  returns 0x00000005 (0000ms, 0723ms total)
T3527C 001:106 JLINK_Go() (0001ms, 0724ms total)
T3527C 001:107 JLINK_IsHalted()  returns FALSE (0000ms, 0724ms total)
T3527C 001:144 JLINK_IsHalted() -- CPU_ReadMem(2 bytes @ 0x20000000)  returns TRUE (0002ms, 0726ms total)
T3527C 001:146 JLINK_ReadReg(R15 (PC))  returns 0x20000000 (0000ms, 0724ms total)
T3527C 001:146 JLINK_ClrBPEx(BPHandle = 0x00000005)  returns 0x00 (0000ms, 0724ms total)
T3527C 001:146 JLINK_ReadReg(R0)  returns 0x00000000 (0000ms, 0724ms total)
T3527C 001:147 JLINK_WriteMem(0x20000164, 0x0400 Bytes, ...) - Data: 24 03 05 E0 00 F0 0F 06 00 09 96 5D 5E 54 49 1C ... -- CPU_WriteMem(1024 bytes @ 0x20000164)  returns 0x400 (0005ms, 0729ms total)
T3527C 001:152 JLINK_WriteReg(R0, 0x08000400)  returns 0x00 (0000ms, 0729ms total)
T3527C 001:152 JLINK_WriteReg(R1, 0x00000400)  returns 0x00 (0000ms, 0729ms total)
T3527C 001:152 JLINK_WriteReg(R2, 0x20000164)  returns 0x00 (0000ms, 0729ms total)
T3527C 001:152 JLINK_WriteReg(R3, 0x00000000)  returns 0x00 (0000ms, 0729ms total)
T3527C 001:152 JLINK_WriteReg(R4, 0x00000000)  returns 0x00 (0000ms, 0729ms total)
T3527C 001:152 JLINK_WriteReg(R5, 0x00000000)  returns 0x00 (0000ms, 0729ms total)
T3527C 001:152 JLINK_WriteReg(R6, 0x00000000)  returns 0x00 (0000ms, 0729ms total)
T3527C 001:152 JLINK_WriteReg(R7, 0x00000000)  returns 0x00 (0000ms, 0729ms total)
T3527C 001:152 JLINK_WriteReg(R8, 0x00000000)  returns 0x00 (0000ms, 0729ms total)
T3527C 001:152 JLINK_WriteReg(R9, 0x20000160)  returns 0x00 (0000ms, 0729ms total)
T3527C 001:152 JLINK_WriteReg(R10, 0x00000000)  returns 0x00 (0000ms, 0729ms total)
T3527C 001:152 JLINK_WriteReg(R11, 0x00000000)  returns 0x00 (0000ms, 0729ms total)
T3527C 001:152 JLINK_WriteReg(R12, 0x00000000)  returns 0x00 (0000ms, 0729ms total)
T3527C 001:152 JLINK_WriteReg(R13 (SP), 0x20001000)  returns 0x00 (0000ms, 0729ms total)
T3527C 001:152 JLINK_WriteReg(R14, 0x20000001)  returns 0x00 (0000ms, 0729ms total)
T3527C 001:152 JLINK_WriteReg(R15 (PC), 0x200000F4)  returns 0x00 (0000ms, 0729ms total)
T3527C 001:152 JLINK_WriteReg(XPSR, 0x01000000)  returns 0x00 (0000ms, 0729ms total)
T3527C 001:152 JLINK_WriteReg(MSP, 0x20001000)  returns 0x00 (0000ms, 0729ms total)
T3527C 001:152 JLINK_WriteReg(PSP, 0x20001000)  returns 0x00 (0000ms, 0729ms total)
T3527C 001:152 JLINK_WriteReg(CFBP, 0x00000000)  returns 0x00 (0000ms, 0729ms total)
T3527C 001:152 JLINK_SetBPEx(Addr = 0x20000000, Type = 0xFFFFFFF2)  returns 0x00000006 (0000ms, 0729ms total)
T3527C 001:152 JLINK_Go() (0001ms, 0730ms total)
T3527C 001:153 JLINK_IsHalted()  returns FALSE (0000ms, 0730ms total)
T3527C 001:159 JLINK_IsHalted()  returns FALSE (0000ms, 0730ms total)
T3527C 001:160 JLINK_IsHalted()  returns FALSE (0000ms, 0730ms total)
T3527C 001:162 JLINK_IsHalted()  returns FALSE (0000ms, 0730ms total)
T3527C 001:163 JLINK_IsHalted()  returns FALSE (0000ms, 0730ms total)
T3527C 001:165 JLINK_IsHalted()  returns FALSE (0000ms, 0730ms total)
T3527C 001:166 JLINK_IsHalted()  returns FALSE (0000ms, 0730ms total)
T3527C 001:168 JLINK_IsHalted()  returns FALSE (0000ms, 0730ms total)
T3527C 001:178 JLINK_IsHalted()  returns FALSE (0000ms, 0730ms total)
T3527C 001:179 JLINK_IsHalted()  returns FALSE (0000ms, 0730ms total)
T3527C 001:181 JLINK_IsHalted()  returns FALSE (0000ms, 0730ms total)
T3527C 001:183 JLINK_IsHalted()  returns FALSE (0000ms, 0730ms total)
T3527C 001:184 JLINK_IsHalted() -- CPU_ReadMem(2 bytes @ 0x20000000)  returns TRUE (0002ms, 0732ms total)
T3527C 001:186 JLINK_ReadReg(R15 (PC))  returns 0x20000000 (0000ms, 0730ms total)
T3527C 001:186 JLINK_ClrBPEx(BPHandle = 0x00000006)  returns 0x00 (0000ms, 0730ms total)
T3527C 001:186 JLINK_ReadReg(R0)  returns 0x00000000 (0000ms, 0730ms total)
T3527C 001:187 JLINK_WriteMem(0x20000164, 0x0400 Bytes, ...) - Data: 4A 70 01 22 ED E7 11 68 4F F0 FF 32 E9 E7 00 00 ... -- CPU_WriteMem(1024 bytes @ 0x20000164)  returns 0x400 (0005ms, 0735ms total)
T3527C 001:192 JLINK_WriteReg(R0, 0x08000800)  returns 0x00 (0000ms, 0735ms total)
T3527C 001:192 JLINK_WriteReg(R1, 0x00000400)  returns 0x00 (0000ms, 0735ms total)
T3527C 001:192 JLINK_WriteReg(R2, 0x20000164)  returns 0x00 (0000ms, 0735ms total)
T3527C 001:192 JLINK_WriteReg(R3, 0x00000000)  returns 0x00 (0000ms, 0735ms total)
T3527C 001:192 JLINK_WriteReg(R4, 0x00000000)  returns 0x00 (0000ms, 0735ms total)
T3527C 001:192 JLINK_WriteReg(R5, 0x00000000)  returns 0x00 (0000ms, 0735ms total)
T3527C 001:192 JLINK_WriteReg(R6, 0x00000000)  returns 0x00 (0000ms, 0735ms total)
T3527C 001:192 JLINK_WriteReg(R7, 0x00000000)  returns 0x00 (0000ms, 0735ms total)
T3527C 001:192 JLINK_WriteReg(R8, 0x00000000)  returns 0x00 (0000ms, 0735ms total)
T3527C 001:192 JLINK_WriteReg(R9, 0x20000160)  returns 0x00 (0000ms, 0735ms total)
T3527C 001:192 JLINK_WriteReg(R10, 0x00000000)  returns 0x00 (0000ms, 0735ms total)
T3527C 001:192 JLINK_WriteReg(R11, 0x00000000)  returns 0x00 (0000ms, 0735ms total)
T3527C 001:192 JLINK_WriteReg(R12, 0x00000000)  returns 0x00 (0000ms, 0735ms total)
T3527C 001:192 JLINK_WriteReg(R13 (SP), 0x20001000)  returns 0x00 (0000ms, 0735ms total)
T3527C 001:192 JLINK_WriteReg(R14, 0x20000001)  returns 0x00 (0000ms, 0735ms total)
T3527C 001:192 JLINK_WriteReg(R15 (PC), 0x200000F4)  returns 0x00 (0000ms, 0735ms total)
T3527C 001:192 JLINK_WriteReg(XPSR, 0x01000000)  returns 0x00 (0000ms, 0735ms total)
T3527C 001:192 JLINK_WriteReg(MSP, 0x20001000)  returns 0x00 (0000ms, 0735ms total)
T3527C 001:192 JLINK_WriteReg(PSP, 0x20001000)  returns 0x00 (0000ms, 0735ms total)
T3527C 001:192 JLINK_WriteReg(CFBP, 0x00000000)  returns 0x00 (0000ms, 0735ms total)
T3527C 001:192 JLINK_SetBPEx(Addr = 0x20000000, Type = 0xFFFFFFF2)  returns 0x00000007 (0000ms, 0735ms total)
T3527C 001:192 JLINK_Go() (0001ms, 0736ms total)
T3527C 001:193 JLINK_IsHalted()  returns FALSE (0000ms, 0736ms total)
T3527C 001:197 JLINK_IsHalted()  returns FALSE (0000ms, 0736ms total)
T3527C 001:199 JLINK_IsHalted()  returns FALSE (0000ms, 0736ms total)
T3527C 001:200 JLINK_IsHalted()  returns FALSE (0000ms, 0736ms total)
T3527C 001:202 JLINK_IsHalted()  returns FALSE (0000ms, 0736ms total)
T3527C 001:229 JLINK_IsHalted() -- CPU_ReadMem(2 bytes @ 0x20000000)  returns TRUE (0002ms, 0738ms total)
T3527C 001:231 JLINK_ReadReg(R15 (PC))  returns 0x20000000 (0000ms, 0736ms total)
T3527C 001:231 JLINK_ClrBPEx(BPHandle = 0x00000007)  returns 0x00 (0000ms, 0736ms total)
T3527C 001:231 JLINK_ReadReg(R0)  returns 0x00000000 (0000ms, 0736ms total)
T3527C 001:232 JLINK_WriteMem(0x20000164, 0x0400 Bytes, ...) - Data: 2A 20 88 81 4F F4 F0 70 08 80 4F F4 48 70 48 80 ... -- CPU_WriteMem(1024 bytes @ 0x20000164)  returns 0x400 (0005ms, 0741ms total)
T3527C 001:237 JLINK_WriteReg(R0, 0x08000C00)  returns 0x00 (0000ms, 0741ms total)
T3527C 001:237 JLINK_WriteReg(R1, 0x00000400)  returns 0x00 (0000ms, 0741ms total)
T3527C 001:237 JLINK_WriteReg(R2, 0x20000164)  returns 0x00 (0000ms, 0741ms total)
T3527C 001:237 JLINK_WriteReg(R3, 0x00000000)  returns 0x00 (0000ms, 0741ms total)
T3527C 001:237 JLINK_WriteReg(R4, 0x00000000)  returns 0x00 (0000ms, 0741ms total)
T3527C 001:237 JLINK_WriteReg(R5, 0x00000000)  returns 0x00 (0000ms, 0741ms total)
T3527C 001:237 JLINK_WriteReg(R6, 0x00000000)  returns 0x00 (0000ms, 0741ms total)
T3527C 001:237 JLINK_WriteReg(R7, 0x00000000)  returns 0x00 (0000ms, 0741ms total)
T3527C 001:237 JLINK_WriteReg(R8, 0x00000000)  returns 0x00 (0000ms, 0741ms total)
T3527C 001:237 JLINK_WriteReg(R9, 0x20000160)  returns 0x00 (0000ms, 0741ms total)
T3527C 001:237 JLINK_WriteReg(R10, 0x00000000)  returns 0x00 (0000ms, 0741ms total)
T3527C 001:237 JLINK_WriteReg(R11, 0x00000000)  returns 0x00 (0000ms, 0741ms total)
T3527C 001:237 JLINK_WriteReg(R12, 0x00000000)  returns 0x00 (0000ms, 0741ms total)
T3527C 001:237 JLINK_WriteReg(R13 (SP), 0x20001000)  returns 0x00 (0000ms, 0741ms total)
T3527C 001:237 JLINK_WriteReg(R14, 0x20000001)  returns 0x00 (0000ms, 0741ms total)
T3527C 001:237 JLINK_WriteReg(R15 (PC), 0x200000F4)  returns 0x00 (0000ms, 0741ms total)
T3527C 001:237 JLINK_WriteReg(XPSR, 0x01000000)  returns 0x00 (0000ms, 0741ms total)
T3527C 001:237 JLINK_WriteReg(MSP, 0x20001000)  returns 0x00 (0000ms, 0741ms total)
T3527C 001:237 JLINK_WriteReg(PSP, 0x20001000)  returns 0x00 (0000ms, 0741ms total)
T3527C 001:237 JLINK_WriteReg(CFBP, 0x00000000)  returns 0x00 (0000ms, 0741ms total)
T3527C 001:237 JLINK_SetBPEx(Addr = 0x20000000, Type = 0xFFFFFFF2)  returns 0x00000008 (0000ms, 0741ms total)
T3527C 001:237 JLINK_Go() (0001ms, 0742ms total)
T3527C 001:238 JLINK_IsHalted()  returns FALSE (0000ms, 0742ms total)
T3527C 001:242 JLINK_IsHalted()  returns FALSE (0000ms, 0742ms total)
T3527C 001:244 JLINK_IsHalted()  returns FALSE (0000ms, 0742ms total)
T3527C 001:245 JLINK_IsHalted()  returns FALSE (0000ms, 0742ms total)
T3527C 001:247 JLINK_IsHalted()  returns FALSE (0000ms, 0742ms total)
T3527C 001:252 JLINK_IsHalted()  returns FALSE (0000ms, 0742ms total)
T3527C 001:253 JLINK_IsHalted()  returns FALSE (0000ms, 0742ms total)
T3527C 001:255 JLINK_IsHalted()  returns FALSE (0000ms, 0742ms total)
T3527C 001:256 JLINK_IsHalted()  returns FALSE (0000ms, 0742ms total)
T3527C 001:258 JLINK_IsHalted()  returns FALSE (0000ms, 0742ms total)
T3527C 001:259 JLINK_IsHalted()  returns FALSE (0000ms, 0742ms total)
T3527C 001:261 JLINK_IsHalted()  returns FALSE (0000ms, 0742ms total)
T3527C 001:274 JLINK_IsHalted() -- CPU_ReadMem(2 bytes @ 0x20000000)  returns TRUE (0002ms, 0744ms total)
T3527C 001:276 JLINK_ReadReg(R15 (PC))  returns 0x20000000 (0000ms, 0742ms total)
T3527C 001:276 JLINK_ClrBPEx(BPHandle = 0x00000008)  returns 0x00 (0000ms, 0742ms total)
T3527C 001:276 JLINK_ReadReg(R0)  returns 0x00000000 (0000ms, 0742ms total)
T3527C 001:276 JLINK_WriteMem(0x20000164, 0x0400 Bytes, ...) - Data: C0 1A 83 B2 08 49 48 89 19 46 03 F0 CB FF 06 49 ... -- CPU_WriteMem(1024 bytes @ 0x20000164)  returns 0x400 (0006ms, 0748ms total)
T3527C 001:282 JLINK_WriteReg(R0, 0x08001000)  returns 0x00 (0000ms, 0748ms total)
T3527C 001:282 JLINK_WriteReg(R1, 0x00000400)  returns 0x00 (0000ms, 0748ms total)
T3527C 001:282 JLINK_WriteReg(R2, 0x20000164)  returns 0x00 (0000ms, 0748ms total)
T3527C 001:282 JLINK_WriteReg(R3, 0x00000000)  returns 0x00 (0000ms, 0748ms total)
T3527C 001:282 JLINK_WriteReg(R4, 0x00000000)  returns 0x00 (0000ms, 0748ms total)
T3527C 001:282 JLINK_WriteReg(R5, 0x00000000)  returns 0x00 (0000ms, 0748ms total)
T3527C 001:282 JLINK_WriteReg(R6, 0x00000000)  returns 0x00 (0000ms, 0748ms total)
T3527C 001:282 JLINK_WriteReg(R7, 0x00000000)  returns 0x00 (0000ms, 0748ms total)
T3527C 001:282 JLINK_WriteReg(R8, 0x00000000)  returns 0x00 (0000ms, 0748ms total)
T3527C 001:282 JLINK_WriteReg(R9, 0x20000160)  returns 0x00 (0000ms, 0748ms total)
T3527C 001:282 JLINK_WriteReg(R10, 0x00000000)  returns 0x00 (0000ms, 0748ms total)
T3527C 001:282 JLINK_WriteReg(R11, 0x00000000)  returns 0x00 (0000ms, 0748ms total)
T3527C 001:282 JLINK_WriteReg(R12, 0x00000000)  returns 0x00 (0000ms, 0748ms total)
T3527C 001:282 JLINK_WriteReg(R13 (SP), 0x20001000)  returns 0x00 (0000ms, 0748ms total)
T3527C 001:282 JLINK_WriteReg(R14, 0x20000001)  returns 0x00 (0000ms, 0748ms total)
T3527C 001:282 JLINK_WriteReg(R15 (PC), 0x200000F4)  returns 0x00 (0000ms, 0748ms total)
T3527C 001:282 JLINK_WriteReg(XPSR, 0x01000000)  returns 0x00 (0000ms, 0748ms total)
T3527C 001:282 JLINK_WriteReg(MSP, 0x20001000)  returns 0x00 (0000ms, 0748ms total)
T3527C 001:282 JLINK_WriteReg(PSP, 0x20001000)  returns 0x00 (0000ms, 0748ms total)
T3527C 001:282 JLINK_WriteReg(CFBP, 0x00000000)  returns 0x00 (0000ms, 0748ms total)
T3527C 001:282 JLINK_SetBPEx(Addr = 0x20000000, Type = 0xFFFFFFF2)  returns 0x00000009 (0000ms, 0748ms total)
T3527C 001:282 JLINK_Go() (0001ms, 0749ms total)
T3527C 001:283 JLINK_IsHalted()  returns FALSE (0000ms, 0749ms total)
T3527C 001:288 JLINK_IsHalted()  returns FALSE (0000ms, 0749ms total)
T3527C 001:290 JLINK_IsHalted()  returns FALSE (0000ms, 0749ms total)
T3527C 001:293 JLINK_IsHalted()  returns FALSE (0000ms, 0749ms total)
T3527C 001:295 JLINK_IsHalted()  returns FALSE (0000ms, 0749ms total)
T3527C 001:301 JLINK_IsHalted()  returns FALSE (0000ms, 0749ms total)
T3527C 001:303 JLINK_IsHalted()  returns FALSE (0000ms, 0749ms total)
T3527C 001:305 JLINK_IsHalted()  returns FALSE (0000ms, 0749ms total)
T3527C 001:307 JLINK_IsHalted()  returns FALSE (0000ms, 0749ms total)
T3527C 001:309 JLINK_IsHalted()  returns FALSE (0000ms, 0749ms total)
T3527C 001:334 JLINK_IsHalted() -- CPU_ReadMem(2 bytes @ 0x20000000)  returns TRUE (0002ms, 0751ms total)
T3527C 001:336 JLINK_ReadReg(R15 (PC))  returns 0x20000000 (0000ms, 0749ms total)
T3527C 001:336 JLINK_ClrBPEx(BPHandle = 0x00000009)  returns 0x00 (0000ms, 0749ms total)
T3527C 001:336 JLINK_ReadReg(R0)  returns 0x00000000 (0000ms, 0749ms total)
T3527C 001:336 JLINK_WriteMem(0x20000164, 0x0400 Bytes, ...) - Data: 03 F0 C0 FD B7 20 03 F0 B7 FD 36 20 03 F0 BA FD ... -- CPU_WriteMem(1024 bytes @ 0x20000164)  returns 0x400 (0005ms, 0754ms total)
T3527C 001:341 JLINK_WriteReg(R0, 0x08001400)  returns 0x00 (0000ms, 0754ms total)
T3527C 001:341 JLINK_WriteReg(R1, 0x00000400)  returns 0x00 (0000ms, 0754ms total)
T3527C 001:341 JLINK_WriteReg(R2, 0x20000164)  returns 0x00 (0000ms, 0754ms total)
T3527C 001:341 JLINK_WriteReg(R3, 0x00000000)  returns 0x00 (0000ms, 0754ms total)
T3527C 001:341 JLINK_WriteReg(R4, 0x00000000)  returns 0x00 (0000ms, 0754ms total)
T3527C 001:341 JLINK_WriteReg(R5, 0x00000000)  returns 0x00 (0000ms, 0754ms total)
T3527C 001:341 JLINK_WriteReg(R6, 0x00000000)  returns 0x00 (0000ms, 0754ms total)
T3527C 001:341 JLINK_WriteReg(R7, 0x00000000)  returns 0x00 (0000ms, 0754ms total)
T3527C 001:341 JLINK_WriteReg(R8, 0x00000000)  returns 0x00 (0001ms, 0755ms total)
T3527C 001:342 JLINK_WriteReg(R9, 0x20000160)  returns 0x00 (0000ms, 0755ms total)
T3527C 001:342 JLINK_WriteReg(R10, 0x00000000)  returns 0x00 (0000ms, 0755ms total)
T3527C 001:342 JLINK_WriteReg(R11, 0x00000000)  returns 0x00 (0000ms, 0755ms total)
T3527C 001:342 JLINK_WriteReg(R12, 0x00000000)  returns 0x00 (0000ms, 0755ms total)
T3527C 001:342 JLINK_WriteReg(R13 (SP), 0x20001000)  returns 0x00 (0000ms, 0755ms total)
T3527C 001:342 JLINK_WriteReg(R14, 0x20000001)  returns 0x00 (0000ms, 0755ms total)
T3527C 001:342 JLINK_WriteReg(R15 (PC), 0x200000F4)  returns 0x00 (0000ms, 0755ms total)
T3527C 001:342 JLINK_WriteReg(XPSR, 0x01000000)  returns 0x00 (0000ms, 0755ms total)
T3527C 001:342 JLINK_WriteReg(MSP, 0x20001000)  returns 0x00 (0000ms, 0755ms total)
T3527C 001:342 JLINK_WriteReg(PSP, 0x20001000)  returns 0x00 (0000ms, 0755ms total)
T3527C 001:342 JLINK_WriteReg(CFBP, 0x00000000)  returns 0x00 (0000ms, 0755ms total)
T3527C 001:342 JLINK_SetBPEx(Addr = 0x20000000, Type = 0xFFFFFFF2)  returns 0x0000000A (0000ms, 0755ms total)
T3527C 001:342 JLINK_Go() (0001ms, 0756ms total)
T3527C 001:343 JLINK_IsHalted()  returns FALSE (0000ms, 0756ms total)
T3527C 001:347 JLINK_IsHalted()  returns FALSE (0000ms, 0756ms total)
T3527C 001:349 JLINK_IsHalted()  returns FALSE (0000ms, 0756ms total)
T3527C 001:351 JLINK_IsHalted()  returns FALSE (0000ms, 0756ms total)
T3527C 001:352 JLINK_IsHalted()  returns FALSE (0000ms, 0756ms total)
T3527C 001:354 JLINK_IsHalted()  returns FALSE (0000ms, 0756ms total)
T3527C 001:355 JLINK_IsHalted()  returns FALSE (0000ms, 0756ms total)
T3527C 001:357 JLINK_IsHalted()  returns FALSE (0000ms, 0756ms total)
T3527C 001:358 JLINK_IsHalted()  returns FALSE (0000ms, 0756ms total)
T3527C 001:360 JLINK_IsHalted()  returns FALSE (0000ms, 0756ms total)
T3527C 001:366 JLINK_IsHalted()  returns FALSE (0000ms, 0756ms total)
T3527C 001:368 JLINK_IsHalted()  returns FALSE (0000ms, 0756ms total)
T3527C 001:370 JLINK_IsHalted()  returns FALSE (0000ms, 0756ms total)
T3527C 001:372 JLINK_IsHalted()  returns FALSE (0000ms, 0756ms total)
T3527C 001:378 JLINK_IsHalted() -- CPU_ReadMem(2 bytes @ 0x20000000)  returns TRUE (0002ms, 0758ms total)
T3527C 001:380 JLINK_ReadReg(R15 (PC))  returns 0x20000000 (0000ms, 0756ms total)
T3527C 001:380 JLINK_ClrBPEx(BPHandle = 0x0000000A)  returns 0x00 (0000ms, 0756ms total)
T3527C 001:380 JLINK_ReadReg(R0)  returns 0x00000000 (0000ms, 0756ms total)
T3527C 001:380 JLINK_WriteMem(0x20000164, 0x0400 Bytes, ...) - Data: C1 FB 80 20 03 F0 B8 FB 00 20 03 F0 B5 FB 8B 20 ... -- CPU_WriteMem(1024 bytes @ 0x20000164)  returns 0x400 (0005ms, 0761ms total)
T3527C 001:385 JLINK_WriteReg(R0, 0x08001800)  returns 0x00 (0000ms, 0761ms total)
T3527C 001:385 JLINK_WriteReg(R1, 0x00000400)  returns 0x00 (0000ms, 0761ms total)
T3527C 001:385 JLINK_WriteReg(R2, 0x20000164)  returns 0x00 (0000ms, 0761ms total)
T3527C 001:385 JLINK_WriteReg(R3, 0x00000000)  returns 0x00 (0000ms, 0761ms total)
T3527C 001:385 JLINK_WriteReg(R4, 0x00000000)  returns 0x00 (0001ms, 0762ms total)
T3527C 001:386 JLINK_WriteReg(R5, 0x00000000)  returns 0x00 (0000ms, 0762ms total)
T3527C 001:386 JLINK_WriteReg(R6, 0x00000000)  returns 0x00 (0000ms, 0762ms total)
T3527C 001:386 JLINK_WriteReg(R7, 0x00000000)  returns 0x00 (0000ms, 0762ms total)
T3527C 001:386 JLINK_WriteReg(R8, 0x00000000)  returns 0x00 (0000ms, 0762ms total)
T3527C 001:386 JLINK_WriteReg(R9, 0x20000160)  returns 0x00 (0000ms, 0762ms total)
T3527C 001:386 JLINK_WriteReg(R10, 0x00000000)  returns 0x00 (0000ms, 0762ms total)
T3527C 001:386 JLINK_WriteReg(R11, 0x00000000)  returns 0x00 (0000ms, 0762ms total)
T3527C 001:386 JLINK_WriteReg(R12, 0x00000000)  returns 0x00 (0000ms, 0762ms total)
T3527C 001:386 JLINK_WriteReg(R13 (SP), 0x20001000)  returns 0x00 (0000ms, 0762ms total)
T3527C 001:386 JLINK_WriteReg(R14, 0x20000001)  returns 0x00 (0000ms, 0762ms total)
T3527C 001:386 JLINK_WriteReg(R15 (PC), 0x200000F4)  returns 0x00 (0000ms, 0762ms total)
T3527C 001:386 JLINK_WriteReg(XPSR, 0x01000000)  returns 0x00 (0000ms, 0762ms total)
T3527C 001:386 JLINK_WriteReg(MSP, 0x20001000)  returns 0x00 (0000ms, 0762ms total)
T3527C 001:386 JLINK_WriteReg(PSP, 0x20001000)  returns 0x00 (0000ms, 0762ms total)
T3527C 001:386 JLINK_WriteReg(CFBP, 0x00000000)  returns 0x00 (0000ms, 0762ms total)
T3527C 001:386 JLINK_SetBPEx(Addr = 0x20000000, Type = 0xFFFFFFF2)  returns 0x0000000B (0000ms, 0762ms total)
T3527C 001:386 JLINK_Go() (0001ms, 0763ms total)
T3527C 001:387 JLINK_IsHalted()  returns FALSE (0000ms, 0763ms total)
T3527C 001:395 JLINK_IsHalted()  returns FALSE (0000ms, 0763ms total)
T3527C 001:397 JLINK_IsHalted()  returns FALSE (0000ms, 0763ms total)
T3527C 001:399 JLINK_IsHalted()  returns FALSE (0000ms, 0763ms total)
T3527C 001:401 JLINK_IsHalted()  returns FALSE (0000ms, 0763ms total)
T3527C 001:403 JLINK_IsHalted()  returns FALSE (0000ms, 0763ms total)
T3527C 001:409 JLINK_IsHalted()  returns FALSE (0000ms, 0763ms total)
T3527C 001:411 JLINK_IsHalted()  returns FALSE (0000ms, 0763ms total)
T3527C 001:413 JLINK_IsHalted()  returns FALSE (0000ms, 0763ms total)
T3527C 001:415 JLINK_IsHalted()  returns FALSE (0000ms, 0763ms total)
T3527C 001:417 JLINK_IsHalted()  returns FALSE (0000ms, 0763ms total)
T3527C 001:419 JLINK_IsHalted() -- CPU_ReadMem(2 bytes @ 0x20000000)  returns TRUE (0002ms, 0765ms total)
T3527C 001:421 JLINK_ReadReg(R15 (PC))  returns 0x20000000 (0000ms, 0763ms total)
T3527C 001:421 JLINK_ClrBPEx(BPHandle = 0x0000000B)  returns 0x00 (0000ms, 0763ms total)
T3527C 001:421 JLINK_ReadReg(R0)  returns 0x00000000 (0000ms, 0763ms total)
T3527C 001:422 JLINK_WriteMem(0x20000164, 0x0400 Bytes, ...) - Data: 03 F0 BA F9 0C 20 03 F0 B7 F9 00 20 03 F0 B4 F9 ... -- CPU_WriteMem(1024 bytes @ 0x20000164)  returns 0x400 (0005ms, 0768ms total)
T3527C 001:427 JLINK_WriteReg(R0, 0x08001C00)  returns 0x00 (0000ms, 0768ms total)
T3527C 001:427 JLINK_WriteReg(R1, 0x00000400)  returns 0x00 (0000ms, 0768ms total)
T3527C 001:427 JLINK_WriteReg(R2, 0x20000164)  returns 0x00 (0000ms, 0768ms total)
T3527C 001:427 JLINK_WriteReg(R3, 0x00000000)  returns 0x00 (0000ms, 0768ms total)
T3527C 001:427 JLINK_WriteReg(R4, 0x00000000)  returns 0x00 (0000ms, 0768ms total)
T3527C 001:427 JLINK_WriteReg(R5, 0x00000000)  returns 0x00 (0000ms, 0768ms total)
T3527C 001:427 JLINK_WriteReg(R6, 0x00000000)  returns 0x00 (0000ms, 0768ms total)
T3527C 001:427 JLINK_WriteReg(R7, 0x00000000)  returns 0x00 (0000ms, 0768ms total)
T3527C 001:427 JLINK_WriteReg(R8, 0x00000000)  returns 0x00 (0000ms, 0768ms total)
T3527C 001:427 JLINK_WriteReg(R9, 0x20000160)  returns 0x00 (0000ms, 0768ms total)
T3527C 001:427 JLINK_WriteReg(R10, 0x00000000)  returns 0x00 (0000ms, 0768ms total)
T3527C 001:427 JLINK_WriteReg(R11, 0x00000000)  returns 0x00 (0000ms, 0768ms total)
T3527C 001:427 JLINK_WriteReg(R12, 0x00000000)  returns 0x00 (0000ms, 0768ms total)
T3527C 001:427 JLINK_WriteReg(R13 (SP), 0x20001000)  returns 0x00 (0000ms, 0768ms total)
T3527C 001:427 JLINK_WriteReg(R14, 0x20000001)  returns 0x00 (0000ms, 0768ms total)
T3527C 001:427 JLINK_WriteReg(R15 (PC), 0x200000F4)  returns 0x00 (0000ms, 0768ms total)
T3527C 001:427 JLINK_WriteReg(XPSR, 0x01000000)  returns 0x00 (0000ms, 0768ms total)
T3527C 001:427 JLINK_WriteReg(MSP, 0x20001000)  returns 0x00 (0000ms, 0768ms total)
T3527C 001:427 JLINK_WriteReg(PSP, 0x20001000)  returns 0x00 (0000ms, 0768ms total)
T3527C 001:427 JLINK_WriteReg(CFBP, 0x00000000)  returns 0x00 (0000ms, 0768ms total)
T3527C 001:427 JLINK_SetBPEx(Addr = 0x20000000, Type = 0xFFFFFFF2)  returns 0x0000000C (0000ms, 0768ms total)
T3527C 001:427 JLINK_Go() (0001ms, 0769ms total)
T3527C 001:428 JLINK_IsHalted()  returns FALSE (0000ms, 0769ms total)
T3527C 001:450 JLINK_IsHalted()  returns FALSE (0000ms, 0769ms total)
T3527C 001:451 JLINK_IsHalted()  returns FALSE (0000ms, 0769ms total)
T3527C 001:461 JLINK_IsHalted() -- CPU_ReadMem(2 bytes @ 0x20000000)  returns TRUE (0002ms, 0771ms total)
T3527C 001:463 JLINK_ReadReg(R15 (PC))  returns 0x20000000 (0000ms, 0769ms total)
T3527C 001:463 JLINK_ClrBPEx(BPHandle = 0x0000000C)  returns 0x00 (0000ms, 0769ms total)
T3527C 001:463 JLINK_ReadReg(R0)  returns 0x00000000 (0000ms, 0769ms total)
T3527C 001:463 JLINK_WriteMem(0x20000164, 0x0400 Bytes, ...) - Data: 00 20 02 F0 B9 FF 1C 20 02 F0 B6 FF 00 20 02 F0 ... -- CPU_WriteMem(1024 bytes @ 0x20000164)  returns 0x400 (0005ms, 0774ms total)
T3527C 001:468 JLINK_WriteReg(R0, 0x08002000)  returns 0x00 (0000ms, 0774ms total)
T3527C 001:468 JLINK_WriteReg(R1, 0x00000400)  returns 0x00 (0000ms, 0774ms total)
T3527C 001:468 JLINK_WriteReg(R2, 0x20000164)  returns 0x00 (0000ms, 0774ms total)
T3527C 001:468 JLINK_WriteReg(R3, 0x00000000)  returns 0x00 (0000ms, 0774ms total)
T3527C 001:468 JLINK_WriteReg(R4, 0x00000000)  returns 0x00 (0000ms, 0774ms total)
T3527C 001:468 JLINK_WriteReg(R5, 0x00000000)  returns 0x00 (0000ms, 0774ms total)
T3527C 001:468 JLINK_WriteReg(R6, 0x00000000)  returns 0x00 (0000ms, 0774ms total)
T3527C 001:468 JLINK_WriteReg(R7, 0x00000000)  returns 0x00 (0000ms, 0774ms total)
T3527C 001:468 JLINK_WriteReg(R8, 0x00000000)  returns 0x00 (0000ms, 0774ms total)
T3527C 001:468 JLINK_WriteReg(R9, 0x20000160)  returns 0x00 (0000ms, 0774ms total)
T3527C 001:468 JLINK_WriteReg(R10, 0x00000000)  returns 0x00 (0001ms, 0775ms total)
T3527C 001:469 JLINK_WriteReg(R11, 0x00000000)  returns 0x00 (0000ms, 0775ms total)
T3527C 001:469 JLINK_WriteReg(R12, 0x00000000)  returns 0x00 (0000ms, 0775ms total)
T3527C 001:469 JLINK_WriteReg(R13 (SP), 0x20001000)  returns 0x00 (0000ms, 0775ms total)
T3527C 001:469 JLINK_WriteReg(R14, 0x20000001)  returns 0x00 (0000ms, 0775ms total)
T3527C 001:469 JLINK_WriteReg(R15 (PC), 0x200000F4)  returns 0x00 (0000ms, 0775ms total)
T3527C 001:469 JLINK_WriteReg(XPSR, 0x01000000)  returns 0x00 (0000ms, 0775ms total)
T3527C 001:469 JLINK_WriteReg(MSP, 0x20001000)  returns 0x00 (0000ms, 0775ms total)
T3527C 001:469 JLINK_WriteReg(PSP, 0x20001000)  returns 0x00 (0000ms, 0775ms total)
T3527C 001:469 JLINK_WriteReg(CFBP, 0x00000000)  returns 0x00 (0000ms, 0775ms total)
T3527C 001:469 JLINK_SetBPEx(Addr = 0x20000000, Type = 0xFFFFFFF2)  returns 0x0000000D (0000ms, 0775ms total)
T3527C 001:469 JLINK_Go() (0001ms, 0776ms total)
T3527C 001:470 JLINK_IsHalted()  returns FALSE (0000ms, 0776ms total)
T3527C 001:476 JLINK_IsHalted()  returns FALSE (0000ms, 0776ms total)
T3527C 001:478 JLINK_IsHalted()  returns FALSE (0000ms, 0776ms total)
T3527C 001:480 JLINK_IsHalted()  returns FALSE (0000ms, 0776ms total)
T3527C 001:482 JLINK_IsHalted()  returns FALSE (0000ms, 0776ms total)
T3527C 001:488 JLINK_IsHalted()  returns FALSE (0000ms, 0776ms total)
T3527C 001:490 JLINK_IsHalted()  returns FALSE (0000ms, 0776ms total)
T3527C 001:492 JLINK_IsHalted()  returns FALSE (0000ms, 0776ms total)
T3527C 001:494 JLINK_IsHalted()  returns FALSE (0000ms, 0776ms total)
T3527C 001:496 JLINK_IsHalted()  returns FALSE (0000ms, 0776ms total)
T3527C 001:502 JLINK_IsHalted() -- CPU_ReadMem(2 bytes @ 0x20000000)  returns TRUE (0002ms, 0778ms total)
T3527C 001:504 JLINK_ReadReg(R15 (PC))  returns 0x20000000 (0000ms, 0776ms total)
T3527C 001:504 JLINK_ClrBPEx(BPHandle = 0x0000000D)  returns 0x00 (0000ms, 0776ms total)
T3527C 001:504 JLINK_ReadReg(R0)  returns 0x00000000 (0000ms, 0776ms total)
T3527C 001:505 JLINK_WriteMem(0x20000164, 0x0400 Bytes, ...) - Data: BB FD 45 20 02 F0 B8 FD 00 20 02 F0 B5 FD E8 20 ... -- CPU_WriteMem(1024 bytes @ 0x20000164)  returns 0x400 (0005ms, 0781ms total)
T3527C 001:510 JLINK_WriteReg(R0, 0x08002400)  returns 0x00 (0000ms, 0781ms total)
T3527C 001:510 JLINK_WriteReg(R1, 0x00000400)  returns 0x00 (0000ms, 0781ms total)
T3527C 001:510 JLINK_WriteReg(R2, 0x20000164)  returns 0x00 (0000ms, 0781ms total)
T3527C 001:510 JLINK_WriteReg(R3, 0x00000000)  returns 0x00 (0000ms, 0781ms total)
T3527C 001:510 JLINK_WriteReg(R4, 0x00000000)  returns 0x00 (0000ms, 0781ms total)
T3527C 001:510 JLINK_WriteReg(R5, 0x00000000)  returns 0x00 (0000ms, 0781ms total)
T3527C 001:510 JLINK_WriteReg(R6, 0x00000000)  returns 0x00 (0000ms, 0781ms total)
T3527C 001:510 JLINK_WriteReg(R7, 0x00000000)  returns 0x00 (0000ms, 0781ms total)
T3527C 001:510 JLINK_WriteReg(R8, 0x00000000)  returns 0x00 (0000ms, 0781ms total)
T3527C 001:510 JLINK_WriteReg(R9, 0x20000160)  returns 0x00 (0000ms, 0781ms total)
T3527C 001:510 JLINK_WriteReg(R10, 0x00000000)  returns 0x00 (0000ms, 0781ms total)
T3527C 001:510 JLINK_WriteReg(R11, 0x00000000)  returns 0x00 (0000ms, 0781ms total)
T3527C 001:510 JLINK_WriteReg(R12, 0x00000000)  returns 0x00 (0000ms, 0781ms total)
T3527C 001:510 JLINK_WriteReg(R13 (SP), 0x20001000)  returns 0x00 (0000ms, 0781ms total)
T3527C 001:510 JLINK_WriteReg(R14, 0x20000001)  returns 0x00 (0000ms, 0781ms total)
T3527C 001:510 JLINK_WriteReg(R15 (PC), 0x200000F4)  returns 0x00 (0000ms, 0781ms total)
T3527C 001:510 JLINK_WriteReg(XPSR, 0x01000000)  returns 0x00 (0000ms, 0781ms total)
T3527C 001:510 JLINK_WriteReg(MSP, 0x20001000)  returns 0x00 (0000ms, 0781ms total)
T3527C 001:510 JLINK_WriteReg(PSP, 0x20001000)  returns 0x00 (0000ms, 0781ms total)
T3527C 001:510 JLINK_WriteReg(CFBP, 0x00000000)  returns 0x00 (0000ms, 0781ms total)
T3527C 001:510 JLINK_SetBPEx(Addr = 0x20000000, Type = 0xFFFFFFF2)  returns 0x0000000E (0000ms, 0781ms total)
T3527C 001:510 JLINK_Go() (0001ms, 0782ms total)
T3527C 001:511 JLINK_IsHalted()  returns FALSE (0000ms, 0782ms total)
T3527C 001:519 JLINK_IsHalted()  returns FALSE (0000ms, 0782ms total)
T3527C 001:521 JLINK_IsHalted()  returns FALSE (0000ms, 0782ms total)
T3527C 001:523 JLINK_IsHalted()  returns FALSE (0000ms, 0782ms total)
T3527C 001:525 JLINK_IsHalted()  returns FALSE (0000ms, 0782ms total)
T3527C 001:527 JLINK_IsHalted()  returns FALSE (0000ms, 0782ms total)
T3527C 001:529 JLINK_IsHalted()  returns FALSE (0000ms, 0782ms total)
T3527C 001:554 JLINK_IsHalted() -- CPU_ReadMem(2 bytes @ 0x20000000)  returns TRUE (0002ms, 0784ms total)
T3527C 001:556 JLINK_ReadReg(R15 (PC))  returns 0x20000000 (0000ms, 0782ms total)
T3527C 001:556 JLINK_ClrBPEx(BPHandle = 0x0000000E)  returns 0x00 (0000ms, 0782ms total)
T3527C 001:556 JLINK_ReadReg(R0)  returns 0x00000000 (0000ms, 0782ms total)
T3527C 001:556 JLINK_WriteMem(0x20000164, 0x0400 Bytes, ...) - Data: 34 21 4D F2 03 10 02 F0 CD FB 00 21 4D F2 04 10 ... -- CPU_WriteMem(1024 bytes @ 0x20000164)  returns 0x400 (0005ms, 0787ms total)
T3527C 001:561 JLINK_WriteReg(R0, 0x08002800)  returns 0x00 (0001ms, 0788ms total)
T3527C 001:562 JLINK_WriteReg(R1, 0x00000400)  returns 0x00 (0000ms, 0788ms total)
T3527C 001:562 JLINK_WriteReg(R2, 0x20000164)  returns 0x00 (0000ms, 0788ms total)
T3527C 001:562 JLINK_WriteReg(R3, 0x00000000)  returns 0x00 (0000ms, 0788ms total)
